
T2108 000:483 SEGGER J-Link V4.80g Log File (0001ms, 0268ms total)
T2108 000:483 DLL Compiled: Feb 13 2014 20:50:02 (0001ms, 0268ms total)
T2108 000:483 Logging started @ 2019-07-30 16:34 (0002ms, 0269ms total)
T2108 000:485 JLINK_SetWarnOutHandler(...) (0000ms, 0269ms total)
T2108 000:485 JLINK_OpenEx(...)
Firmware: J-Link V9 compiled Mar  2 2018 17:07:57
Hardware: V9.60
S/N: 69641053
Feature(s): RDI, GDB, FlashDL, FlashBP, JFlash  returns O.K. (0267ms, 0536ms total)
T2108 000:752 JLINK_SetErrorOutHandler(...) (0000ms, 0536ms total)
T2108 000:752 JLINK_ExecCommand("ProjectFile = "H:\STM32练习\实验25 SPI实验\USER\JLinkSettings.ini"", ...)  returns 0x00 (0001ms, 0537ms total)
T2108 000:767 JLINK_ExecCommand("Device = STM32F407ZG", ...)Device "STM32F407ZG" selected (1024 KB flash, 128 KB RAM).  returns 0x00 (0022ms, 0559ms total)
T2108 000:789 JLINK_ExecCommand("DisableConnectionTimeout", ...)  returns 0x01 (0000ms, 0559ms total)
T2108 000:789 JLINK_GetHardwareVersion()  returns 0x17700 (0000ms, 0559ms total)
T2108 000:789 JLINK_GetDLLVersion()  returns 48007 (0000ms, 0559ms total)
T2108 000:789 JLINK_GetFirmwareString(...) (0000ms, 0559ms total)
T2108 000:848 JLINK_GetDLLVersion()  returns 48007 (0000ms, 0559ms total)
T2108 000:848 JLINK_GetCompileDateTime() (0000ms, 0559ms total)
T2108 000:875 JLINK_GetFirmwareString(...) (0000ms, 0559ms total)
T2108 000:888 JLINK_GetHardwareVersion()  returns 0x17700 (0000ms, 0559ms total)
T2108 000:937 JLINK_TIF_Select(JLINKARM_TIF_JTAG)  returns 0x00 (0001ms, 0560ms total)
T2108 000:938 JLINK_SetSpeed(1000) (0000ms, 0560ms total)
T2108 000:938 JLINK_GetIdData(...) >0x2F8 JTAG>Could not measure total IR len. TDO is constant high. >0x30 JTAG>STM32F2xxx/STM32F4xxx: Can not attach to CPU. Trying connect under reset. >0x2F8 JTAG>TotalIRLen = 9, IRPrint = 0x0011 >0x30 JTAG> >0x210 JTAG> >0x40 JTAG> >0x40 JTAG> >0x40 JTAG> >0x30 JTAG> >0x40 JTAG> >0x40 JTAG> >0x40 JTAG> >0x40 JTAG> >0x40 JTAG> >0x40 JTAG> >0x40 JTAG> >0x40 JTAG> >0x40 JTAG> >0x40 JTAG> >0x40 JTAG> >0x40 JTAG> >0x40 JTAG> >0x40 JTAG> >0x40 JTAG> >0x40 JTAG> >0x40 JTAG>
 >0x40 JTAG> >0x40 JTAG> >0x40 JTAG> >0x40 JTAG> >0x2F8 JTAG>TotalIRLen = 9, IRPrint = 0x0011 >0x30 JTAG> >0x210 JTAG> >0x70 JTAG> >0x40 JTAG> >0x40 JTAG> >0x40 JTAG> >0x50 JTAG> >0x80 JTAG> >0x40 JTAG> >0x30 JTAG> >0x40 JTAG> >0x40 JTAG> >0x30 JTAG> >0x40 JTAG> >0x50 JTAG>Found Cortex-M4 r0p1, Little endian. -- CPU_WriteMem(4 bytes @ 0xE0002000) -- CPU_ReadMem(4 bytes @ 0xE000EDF0) -- CPU_ReadMem(4 bytes @ 0xE0002000)FPUnit: 6 code (BP) slots and 2 literal slots -- CPU_ReadMem(4 bytes @ 0xE000EDFC)
 -- CPU_ReadMem(4 bytes @ 0xE0001000) -- CPU_WriteMem(4 bytes @ 0xE0001000) -- CPU_ReadMem(4 bytes @ 0xE00FF010)TPIU fitted. -- CPU_ReadMem(4 bytes @ 0xE00FF014)ETM fitted. -- CPU_ReadMem(4 bytes @ 0xE00FF018) ScanLen=9 NumDevices=2 aId[0]=0x4BA00477 aIrRead[0]=0 aScanLen[0]=0 aScanRead[0]=0 (0244ms, 0804ms total)
T2108 001:182 JLINK_JTAG_GetDeviceID(DeviceIndex = 0)  returns 0x4BA00477 (0000ms, 0804ms total)
T2108 001:182 JLINK_JTAG_GetDeviceInfo(DeviceIndex = 0)  returns 0x00 (0000ms, 0804ms total)
T2108 001:182 JLINK_JTAG_GetDeviceID(DeviceIndex = 1)  returns 0x6413041 (0000ms, 0804ms total)
T2108 001:182 JLINK_JTAG_GetDeviceInfo(DeviceIndex = 1)  returns 0x00 (0000ms, 0804ms total)
T2108 001:182 JLINK_GetDeviceFamily()  returns 14 (0000ms, 0804ms total)
T2108 001:195 JLINK_ReadMem (0xE00FFFF0, 0x0010 Bytes, ...) -- CPU is running -- CPU_ReadMem(16 bytes @ 0xE00FFFF0) -- Data:  0D 00 00 00 10 00 00 00 05 00 00 00 B1 00 00 00  returns 0x00 (0001ms, 0805ms total)
T2108 001:196 JLINK_ReadMem (0xE00FFFD0, 0x0020 Bytes, ...) -- CPU is running -- CPU_ReadMem(32 bytes @ 0xE00FFFD0) -- Data:  00 00 00 00 00 00 00 00 00 00 00 00 00 00 00 00 ...  returns 0x00 (0002ms, 0807ms total)
T2108 001:198 JLINK_ReadMem (0xE00FF000, 0x0018 Bytes, ...) -- CPU is running -- CPU_ReadMem(24 bytes @ 0xE00FF000) -- Data:  03 F0 F0 FF 03 20 F0 FF 03 30 F0 FF 03 10 F0 FF ...  returns 0x00 (0001ms, 0808ms total)
T2108 001:199 JLINK_ReadMemU32(0xE000ED00, 0x0001 Items, ...) -- CPU is running -- CPU_ReadMem(4 bytes @ 0xE000ED00) -- Data:  41 C2 0F 41  returns 0x01 (0001ms, 0809ms total)
T2108 001:200 JLINK_ReadMemU32(0xE000EF40, 0x0001 Items, ...) -- CPU is running -- CPU_ReadMem(4 bytes @ 0xE000EF40) -- Data:  21 00 11 10  returns 0x01 (0001ms, 0810ms total)
T2108 001:201 JLINK_ReadMemU32(0xE000EF44, 0x0001 Items, ...) -- CPU is running -- CPU_ReadMem(4 bytes @ 0xE000EF44) -- Data:  11 00 00 11  returns 0x01 (0001ms, 0811ms total)
T2108 001:202 JLINK_SetResetType(JLINKARM_RESET_TYPE_NORMAL)  returns JLINKARM_RESET_TYPE_NORMAL (0000ms, 0811ms total)
T2108 001:202 JLINK_Reset() -- CPU is running -- CPU_WriteMem(4 bytes @ 0xE000EDF0) -- CPU is running -- CPU_WriteMem(4 bytes @ 0xE000EDFC) -- CPU is running -- CPU_WriteMem(4 bytes @ 0xE000ED0C) -- CPU is running -- CPU_ReadMem(4 bytes @ 0xE000EDF0) -- CPU is running -- CPU_ReadMem(4 bytes @ 0xE000EDF0) -- CPU is running -- CPU_WriteMem(4 bytes @ 0xE000EDF0) -- CPU is running -- CPU_WriteMem(4 bytes @ 0xE000EDFC) -- CPU is running -- CPU_ReadMem(4 bytes @ 0xE000EDF0) >0x80 JTAG> >0x40 JTAG> >0x30 JTAG>
 >0x40 JTAG> >0x50 JTAG> >0x40 JTAG> -- CPU_WriteMem(4 bytes @ 0xE000EDFC) -- CPU_WriteMem(4 bytes @ 0xE0001028) -- CPU_WriteMem(4 bytes @ 0xE0001038) -- CPU_WriteMem(4 bytes @ 0xE0001048) -- CPU_WriteMem(4 bytes @ 0xE0001058) -- CPU_WriteMem(4 bytes @ 0xE0002000) -- CPU_ReadMem(4 bytes @ 0xE000EDFC) -- CPU_ReadMem(4 bytes @ 0xE0001000) (0033ms, 0844ms total)
T2108 001:235 JLINK_Halt()  returns 0x00 (0000ms, 0844ms total)
T2108 001:235 JLINK_IsHalted()  returns TRUE (0000ms, 0844ms total)
T2108 001:235 JLINK_ReadMemU32(0xE000EDF0, 0x0001 Items, ...) -- CPU_ReadMem(4 bytes @ 0xE000EDF0) -- Data:  03 00 03 00  returns 0x01 (0001ms, 0845ms total)
T2108 001:236 JLINK_WriteU32(0xE000EDF0, 0xA05F0003) -- CPU_WriteMem(4 bytes @ 0xE000EDF0)  returns 0x00 (0001ms, 0846ms total)
T2108 001:237 JLINK_WriteU32(0xE000EDFC, 0x01000000) -- CPU_WriteMem(4 bytes @ 0xE000EDFC)  returns 0x00 (0001ms, 0847ms total)
T2108 001:285 JLINK_GetHWStatus(...)  returns 0x00 (0000ms, 0847ms total)
T2108 001:316 JLINK_GetNumBPUnits(Type = 0xFFFFFF00)  returns 0x06 (0000ms, 0847ms total)
T2108 001:316 JLINK_GetNumBPUnits(Type = 0xF0)  returns 0x2000 (0000ms, 0847ms total)
T2108 001:316 JLINK_GetNumWPUnits()  returns 0x04 (0000ms, 0847ms total)
T2108 001:350 JLINK_GetSpeed()  returns 0x3E8 (0000ms, 0847ms total)
T2108 001:377 JLINK_ReadMemU32(0xE000E004, 0x0001 Items, ...) -- CPU_ReadMem(4 bytes @ 0xE000E004) -- Data:  02 00 00 00  returns 0x01 (0001ms, 0848ms total)
T2108 001:378 JLINK_ReadMemU32(0xE000E004, 0x0001 Items, ...) -- CPU_ReadMem(4 bytes @ 0xE000E004) -- Data:  02 00 00 00  returns 0x01 (0001ms, 0849ms total)
T2108 001:379 JLINK_WriteMem(0xE0001000, 0x001C Bytes, ...) -- Data:  01 00 00 00 00 00 00 00 00 00 00 00 00 00 00 00 ... -- CPU_WriteMem(28 bytes @ 0xE0001000)  returns 0x1C (0001ms, 0850ms total)
T2108 001:380 JLINK_ReadMem (0xE0001000, 0x001C Bytes, ...) -- CPU_ReadMem(28 bytes @ 0xE0001000) -- Data:  01 00 00 40 00 00 00 00 00 00 00 00 00 00 00 00 ...  returns 0x00 (0001ms, 0851ms total)
T2108 001:382 JLINK_Halt()  returns 0x00 (0000ms, 0852ms total)
T2108 001:382 JLINK_IsHalted()  returns TRUE (0000ms, 0852ms total)
T2108 001:390 JLINK_WriteMem(0x20000000, 0x0180 Bytes, ...) -- Data:  00 BE 0A E0 0D 78 2D 06 68 40 08 24 40 00 00 D3 ... -- CPU_WriteMem(384 bytes @ 0x20000000)  returns 0x180 (0005ms, 0857ms total)
T2108 001:395 JLINK_WriteReg(R0, 0x08000000)  returns 0x00 (0000ms, 0857ms total)
T2108 001:396 JLINK_WriteReg(R1, 0x007A1200)  returns 0x00 (0000ms, 0858ms total)
T2108 001:396 JLINK_WriteReg(R2, 0x00000001)  returns 0x00 (0000ms, 0858ms total)
T2108 001:396 JLINK_WriteReg(R3, 0x00000000)  returns 0x00 (0000ms, 0858ms total)
T2108 001:396 JLINK_WriteReg(R4, 0x00000000)  returns 0x00 (0000ms, 0858ms total)
T2108 001:396 JLINK_WriteReg(R5, 0x00000000)  returns 0x00 (0000ms, 0858ms total)
T2108 001:396 JLINK_WriteReg(R6, 0x00000000)  returns 0x00 (0000ms, 0858ms total)
T2108 001:396 JLINK_WriteReg(R7, 0x00000000)  returns 0x00 (0000ms, 0858ms total)
T2108 001:396 JLINK_WriteReg(R8, 0x00000000)  returns 0x00 (0000ms, 0858ms total)
T2108 001:396 JLINK_WriteReg(R9, 0x2000017C)  returns 0x00 (0000ms, 0858ms total)
T2108 001:396 JLINK_WriteReg(R10, 0x00000000)  returns 0x00 (0000ms, 0858ms total)
T2108 001:396 JLINK_WriteReg(R11, 0x00000000)  returns 0x00 (0000ms, 0858ms total)
T2108 001:396 JLINK_WriteReg(R12, 0x00000000)  returns 0x00 (0000ms, 0858ms total)
T2108 001:396 JLINK_WriteReg(R13 (SP), 0x20001000)  returns 0x00 (0000ms, 0858ms total)
T2108 001:396 JLINK_WriteReg(R14, 0x20000001)  returns 0x00 (0001ms, 0859ms total)
T2108 001:397 JLINK_WriteReg(R15 (PC), 0x20000054)  returns 0x00 (0000ms, 0859ms total)
T2108 001:397 JLINK_WriteReg(XPSR, 0x01000000)  returns 0x00 (0000ms, 0859ms total)
T2108 001:397 JLINK_WriteReg(MSP, 0x20001000)  returns 0x00 (0000ms, 0859ms total)
T2108 001:397 JLINK_WriteReg(PSP, 0x20001000)  returns 0x00 (0000ms, 0859ms total)
T2108 001:397 JLINK_WriteReg(CFBP, 0x00000000)  returns 0x00 (0000ms, 0859ms total)
T2108 001:397 JLINK_SetBPEx(Addr = 0x20000000, Type = 0xFFFFFFF2) -- CPU_ReadMem(2 bytes @ 0x20000000)  returns 0x00000001 (0001ms, 0860ms total)
T2108 001:398 JLINK_Go() -- CPU_WriteMem(2 bytes @ 0x20000000) -- CPU_WriteMem(4 bytes @ 0xE0002008) -- CPU_WriteMem(4 bytes @ 0xE000200C) -- CPU_WriteMem(4 bytes @ 0xE0002010) -- CPU_WriteMem(4 bytes @ 0xE0002014) -- CPU_WriteMem(4 bytes @ 0xE0002018) -- CPU_WriteMem(4 bytes @ 0xE000201C) -- CPU_WriteMem(4 bytes @ 0xE0001004) (0008ms, 0868ms total)
T2108 001:406 JLINK_IsHalted() -- CPU_ReadMem(2 bytes @ 0x20000000)  returns TRUE (0008ms, 0876ms total)
T2108 001:414 JLINK_ReadReg(R15 (PC))  returns 0x20000000 (0000ms, 0868ms total)
T2108 001:414 JLINK_ClrBPEx(BPHandle = 0x00000001)  returns 0x00 (0000ms, 0868ms total)
T2108 001:414 JLINK_ReadReg(R0)  returns 0x00000000 (0000ms, 0868ms total)
T2108 001:415 JLINK_WriteReg(R0, 0x08000000)  returns 0x00 (0000ms, 0868ms total)
T2108 001:415 JLINK_WriteReg(R1, 0x00004000)  returns 0x00 (0000ms, 0868ms total)
T2108 001:415 JLINK_WriteReg(R2, 0x000000FF)  returns 0x00 (0000ms, 0868ms total)
T2108 001:415 JLINK_WriteReg(R3, 0x00000000)  returns 0x00 (0000ms, 0868ms total)
T2108 001:415 JLINK_WriteReg(R4, 0x00000000)  returns 0x00 (0000ms, 0868ms total)
T2108 001:415 JLINK_WriteReg(R5, 0x00000000)  returns 0x00 (0000ms, 0868ms total)
T2108 001:415 JLINK_WriteReg(R6, 0x00000000)  returns 0x00 (0000ms, 0868ms total)
T2108 001:415 JLINK_WriteReg(R7, 0x00000000)  returns 0x00 (0000ms, 0868ms total)
T2108 001:415 JLINK_WriteReg(R8, 0x00000000)  returns 0x00 (0000ms, 0868ms total)
T2108 001:415 JLINK_WriteReg(R9, 0x2000017C)  returns 0x00 (0000ms, 0868ms total)
T2108 001:415 JLINK_WriteReg(R10, 0x00000000)  returns 0x00 (0000ms, 0868ms total)
T2108 001:415 JLINK_WriteReg(R11, 0x00000000)  returns 0x00 (0000ms, 0868ms total)
T2108 001:415 JLINK_WriteReg(R12, 0x00000000)  returns 0x00 (0000ms, 0868ms total)
T2108 001:415 JLINK_WriteReg(R13 (SP), 0x20001000)  returns 0x00 (0000ms, 0868ms total)
T2108 001:415 JLINK_WriteReg(R14, 0x20000001)  returns 0x00 (0000ms, 0868ms total)
T2108 001:415 JLINK_WriteReg(R15 (PC), 0x20000020)  returns 0x00 (0000ms, 0868ms total)
T2108 001:415 JLINK_WriteReg(XPSR, 0x01000000)  returns 0x00 (0000ms, 0868ms total)
T2108 001:415 JLINK_WriteReg(MSP, 0x20001000)  returns 0x00 (0000ms, 0868ms total)
T2108 001:415 JLINK_WriteReg(PSP, 0x20001000)  returns 0x00 (0001ms, 0869ms total)
T2108 001:416 JLINK_WriteReg(CFBP, 0x00000000)  returns 0x00 (0000ms, 0869ms total)
T2108 001:416 JLINK_SetBPEx(Addr = 0x20000000, Type = 0xFFFFFFF2)  returns 0x00000002 (0000ms, 0869ms total)
T2108 001:416 JLINK_Go() (0003ms, 0872ms total)
T2108 001:419 JLINK_IsHalted() -- CPU_ReadMem(2 bytes @ 0x20000000)  returns TRUE (0007ms, 0879ms total)
T2108 001:426 JLINK_ReadReg(R15 (PC))  returns 0x20000000 (0000ms, 0872ms total)
T2108 001:426 JLINK_ClrBPEx(BPHandle = 0x00000002)  returns 0x00 (0000ms, 0872ms total)
T2108 001:426 JLINK_ReadReg(R0)  returns 0x00000001 (0000ms, 0872ms total)
T2108 001:426 JLINK_WriteReg(R0, 0x08000000)  returns 0x00 (0000ms, 0872ms total)
T2108 001:426 JLINK_WriteReg(R1, 0x00004000)  returns 0x00 (0000ms, 0872ms total)
T2108 001:426 JLINK_WriteReg(R2, 0x000000FF)  returns 0x00 (0000ms, 0872ms total)
T2108 001:426 JLINK_WriteReg(R3, 0x00000000)  returns 0x00 (0000ms, 0872ms total)
T2108 001:426 JLINK_WriteReg(R4, 0x00000000)  returns 0x00 (0000ms, 0872ms total)
T2108 001:426 JLINK_WriteReg(R5, 0x00000000)  returns 0x00 (0000ms, 0872ms total)
T2108 001:426 JLINK_WriteReg(R6, 0x00000000)  returns 0x00 (0000ms, 0872ms total)
T2108 001:426 JLINK_WriteReg(R7, 0x00000000)  returns 0x00 (0001ms, 0873ms total)
T2108 001:427 JLINK_WriteReg(R8, 0x00000000)  returns 0x00 (0000ms, 0873ms total)
T2108 001:427 JLINK_WriteReg(R9, 0x2000017C)  returns 0x00 (0000ms, 0873ms total)
T2108 001:427 JLINK_WriteReg(R10, 0x00000000)  returns 0x00 (0000ms, 0873ms total)
T2108 001:427 JLINK_WriteReg(R11, 0x00000000)  returns 0x00 (0000ms, 0873ms total)
T2108 001:427 JLINK_WriteReg(R12, 0x00000000)  returns 0x00 (0000ms, 0873ms total)
T2108 001:427 JLINK_WriteReg(R13 (SP), 0x20001000)  returns 0x00 (0000ms, 0873ms total)
T2108 001:427 JLINK_WriteReg(R14, 0x20000001)  returns 0x00 (0000ms, 0873ms total)
T2108 001:427 JLINK_WriteReg(R15 (PC), 0x200000BC)  returns 0x00 (0000ms, 0873ms total)
T2108 001:427 JLINK_WriteReg(XPSR, 0x01000000)  returns 0x00 (0000ms, 0873ms total)
T2108 001:427 JLINK_WriteReg(MSP, 0x20001000)  returns 0x00 (0000ms, 0873ms total)
T2108 001:427 JLINK_WriteReg(PSP, 0x20001000)  returns 0x00 (0000ms, 0873ms total)
T2108 001:427 JLINK_WriteReg(CFBP, 0x00000000)  returns 0x00 (0000ms, 0873ms total)
T2108 001:427 JLINK_SetBPEx(Addr = 0x20000000, Type = 0xFFFFFFF2)  returns 0x00000003 (0000ms, 0873ms total)
T2108 001:427 JLINK_Go() (0003ms, 0876ms total)
T2108 001:430 JLINK_IsHalted()  returns FALSE (0001ms, 0877ms total)
T2108 001:839 JLINK_IsHalted() -- CPU_ReadMem(2 bytes @ 0x20000000)  returns TRUE (0007ms, 0883ms total)
T2108 001:846 JLINK_ReadReg(R15 (PC))  returns 0x20000000 (0000ms, 0876ms total)
T2108 001:846 JLINK_ClrBPEx(BPHandle = 0x00000003)  returns 0x00 (0000ms, 0876ms total)
T2108 001:846 JLINK_ReadReg(R0)  returns 0x00000000 (0000ms, 0876ms total)
T2108 001:847 JLINK_WriteReg(R0, 0x08004000)  returns 0x00 (0001ms, 0877ms total)
T2108 001:848 JLINK_WriteReg(R1, 0x00004000)  returns 0x00 (0000ms, 0877ms total)
T2108 001:848 JLINK_WriteReg(R2, 0x000000FF)  returns 0x00 (0000ms, 0877ms total)
T2108 001:848 JLINK_WriteReg(R3, 0x00000000)  returns 0x00 (0000ms, 0877ms total)
T2108 001:848 JLINK_WriteReg(R4, 0x00000000)  returns 0x00 (0000ms, 0877ms total)
T2108 001:848 JLINK_WriteReg(R5, 0x00000000)  returns 0x00 (0000ms, 0877ms total)
T2108 001:848 JLINK_WriteReg(R6, 0x00000000)  returns 0x00 (0000ms, 0877ms total)
T2108 001:848 JLINK_WriteReg(R7, 0x00000000)  returns 0x00 (0000ms, 0877ms total)
T2108 001:848 JLINK_WriteReg(R8, 0x00000000)  returns 0x00 (0000ms, 0877ms total)
T2108 001:848 JLINK_WriteReg(R9, 0x2000017C)  returns 0x00 (0000ms, 0877ms total)
T2108 001:848 JLINK_WriteReg(R10, 0x00000000)  returns 0x00 (0000ms, 0877ms total)
T2108 001:848 JLINK_WriteReg(R11, 0x00000000)  returns 0x00 (0000ms, 0877ms total)
T2108 001:848 JLINK_WriteReg(R12, 0x00000000)  returns 0x00 (0000ms, 0877ms total)
T2108 001:849 JLINK_WriteReg(R13 (SP), 0x20001000)  returns 0x00 (0000ms, 0877ms total)
T2108 001:849 JLINK_WriteReg(R14, 0x20000001)  returns 0x00 (0000ms, 0877ms total)
T2108 001:849 JLINK_WriteReg(R15 (PC), 0x20000020)  returns 0x00 (0000ms, 0877ms total)
T2108 001:849 JLINK_WriteReg(XPSR, 0x01000000)  returns 0x00 (0000ms, 0877ms total)
T2108 001:849 JLINK_WriteReg(MSP, 0x20001000)  returns 0x00 (0000ms, 0877ms total)
T2108 001:849 JLINK_WriteReg(PSP, 0x20001000)  returns 0x00 (0000ms, 0877ms total)
T2108 001:849 JLINK_WriteReg(CFBP, 0x00000000)  returns 0x00 (0000ms, 0877ms total)
T2108 001:849 JLINK_SetBPEx(Addr = 0x20000000, Type = 0xFFFFFFF2)  returns 0x00000004 (0000ms, 0877ms total)
T2108 001:849 JLINK_Go() (0003ms, 0880ms total)
T2108 001:852 JLINK_IsHalted() -- CPU_ReadMem(2 bytes @ 0x20000000)  returns TRUE (0008ms, 0888ms total)
T2108 001:860 JLINK_ReadReg(R15 (PC))  returns 0x20000000 (0000ms, 0880ms total)
T2108 001:860 JLINK_ClrBPEx(BPHandle = 0x00000004)  returns 0x00 (0000ms, 0880ms total)
T2108 001:860 JLINK_ReadReg(R0)  returns 0x00000001 (0000ms, 0880ms total)
T2108 001:860 JLINK_WriteReg(R0, 0x08004000)  returns 0x00 (0000ms, 0880ms total)
T2108 001:860 JLINK_WriteReg(R1, 0x00004000)  returns 0x00 (0000ms, 0880ms total)
T2108 001:860 JLINK_WriteReg(R2, 0x000000FF)  returns 0x00 (0000ms, 0880ms total)
T2108 001:860 JLINK_WriteReg(R3, 0x00000000)  returns 0x00 (0000ms, 0880ms total)
T2108 001:860 JLINK_WriteReg(R4, 0x00000000)  returns 0x00 (0000ms, 0880ms total)
T2108 001:860 JLINK_WriteReg(R5, 0x00000000)  returns 0x00 (0000ms, 0880ms total)
T2108 001:860 JLINK_WriteReg(R6, 0x00000000)  returns 0x00 (0000ms, 0880ms total)
T2108 001:860 JLINK_WriteReg(R7, 0x00000000)  returns 0x00 (0000ms, 0880ms total)
T2108 001:860 JLINK_WriteReg(R8, 0x00000000)  returns 0x00 (0000ms, 0880ms total)
T2108 001:860 JLINK_WriteReg(R9, 0x2000017C)  returns 0x00 (0001ms, 0881ms total)
T2108 001:861 JLINK_WriteReg(R10, 0x00000000)  returns 0x00 (0000ms, 0881ms total)
T2108 001:861 JLINK_WriteReg(R11, 0x00000000)  returns 0x00 (0000ms, 0881ms total)
T2108 001:861 JLINK_WriteReg(R12, 0x00000000)  returns 0x00 (0000ms, 0881ms total)
T2108 001:861 JLINK_WriteReg(R13 (SP), 0x20001000)  returns 0x00 (0000ms, 0881ms total)
T2108 001:861 JLINK_WriteReg(R14, 0x20000001)  returns 0x00 (0000ms, 0881ms total)
T2108 001:861 JLINK_WriteReg(R15 (PC), 0x200000BC)  returns 0x00 (0000ms, 0881ms total)
T2108 001:861 JLINK_WriteReg(XPSR, 0x01000000)  returns 0x00 (0000ms, 0881ms total)
T2108 001:861 JLINK_WriteReg(MSP, 0x20001000)  returns 0x00 (0000ms, 0881ms total)
T2108 001:861 JLINK_WriteReg(PSP, 0x20001000)  returns 0x00 (0000ms, 0881ms total)
T2108 001:861 JLINK_WriteReg(CFBP, 0x00000000)  returns 0x00 (0000ms, 0881ms total)
T2108 001:861 JLINK_SetBPEx(Addr = 0x20000000, Type = 0xFFFFFFF2)  returns 0x00000005 (0000ms, 0881ms total)
T2108 001:861 JLINK_Go() (0003ms, 0884ms total)
T2108 001:864 JLINK_IsHalted()  returns FALSE (0001ms, 0885ms total)
T2108 001:991 JLINK_IsHalted()  returns FALSE (0000ms, 0884ms total)
T2108 002:006 JLINK_IsHalted()  returns FALSE (0000ms, 0884ms total)
T2108 002:008 JLINK_IsHalted()  returns FALSE (0000ms, 0884ms total)
T2108 002:107 JLINK_IsHalted()  returns FALSE (0000ms, 0884ms total)
T2108 002:109 JLINK_IsHalted()  returns FALSE (0000ms, 0884ms total)
T2108 002:112 JLINK_IsHalted()  returns FALSE (0000ms, 0884ms total)
T2108 002:114 JLINK_IsHalted()  returns FALSE (0001ms, 0885ms total)
T2108 002:117 JLINK_IsHalted()  returns FALSE (0002ms, 0886ms total)
T2108 002:647 JLINK_IsHalted() -- CPU_ReadMem(2 bytes @ 0x20000000)  returns TRUE (0011ms, 0895ms total)
T2108 002:658 JLINK_ReadReg(R15 (PC))  returns 0x20000000 (0000ms, 0884ms total)
T2108 002:658 JLINK_ClrBPEx(BPHandle = 0x00000005)  returns 0x00 (0000ms, 0884ms total)
T2108 002:658 JLINK_ReadReg(R0)  returns 0x00000000 (0000ms, 0884ms total)
T2108 002:663 JLINK_WriteReg(R0, 0x08008000)  returns 0x00 (0000ms, 0884ms total)
T2108 002:663 JLINK_WriteReg(R1, 0x00004000)  returns 0x00 (0000ms, 0884ms total)
T2108 002:664 JLINK_WriteReg(R2, 0x000000FF)  returns 0x00 (0000ms, 0885ms total)
T2108 002:664 JLINK_WriteReg(R3, 0x00000000)  returns 0x00 (0000ms, 0885ms total)
T2108 002:664 JLINK_WriteReg(R4, 0x00000000)  returns 0x00 (0000ms, 0885ms total)
T2108 002:664 JLINK_WriteReg(R5, 0x00000000)  returns 0x00 (0000ms, 0885ms total)
T2108 002:664 JLINK_WriteReg(R6, 0x00000000)  returns 0x00 (0000ms, 0885ms total)
T2108 002:664 JLINK_WriteReg(R7, 0x00000000)  returns 0x00 (0000ms, 0885ms total)
T2108 002:664 JLINK_WriteReg(R8, 0x00000000)  returns 0x00 (0000ms, 0885ms total)
T2108 002:664 JLINK_WriteReg(R9, 0x2000017C)  returns 0x00 (0000ms, 0885ms total)
T2108 002:664 JLINK_WriteReg(R10, 0x00000000)  returns 0x00 (0000ms, 0885ms total)
T2108 002:664 JLINK_WriteReg(R11, 0x00000000)  returns 0x00 (0000ms, 0885ms total)
T2108 002:664 JLINK_WriteReg(R12, 0x00000000)  returns 0x00 (0000ms, 0885ms total)
T2108 002:664 JLINK_WriteReg(R13 (SP), 0x20001000)  returns 0x00 (0000ms, 0885ms total)
T2108 002:664 JLINK_WriteReg(R14, 0x20000001)  returns 0x00 (0001ms, 0886ms total)
T2108 002:665 JLINK_WriteReg(R15 (PC), 0x20000020)  returns 0x00 (0000ms, 0886ms total)
T2108 002:665 JLINK_WriteReg(XPSR, 0x01000000)  returns 0x00 (0000ms, 0886ms total)
T2108 002:665 JLINK_WriteReg(MSP, 0x20001000)  returns 0x00 (0000ms, 0886ms total)
T2108 002:665 JLINK_WriteReg(PSP, 0x20001000)  returns 0x00 (0000ms, 0886ms total)
T2108 002:665 JLINK_WriteReg(CFBP, 0x00000000)  returns 0x00 (0000ms, 0886ms total)
T2108 002:665 JLINK_SetBPEx(Addr = 0x20000000, Type = 0xFFFFFFF2)  returns 0x00000006 (0000ms, 0886ms total)
T2108 002:665 JLINK_Go() (0004ms, 0890ms total)
T2108 002:669 JLINK_IsHalted() -- CPU_ReadMem(2 bytes @ 0x20000000)  returns TRUE (0008ms, 0898ms total)
T2108 002:677 JLINK_ReadReg(R15 (PC))  returns 0x20000000 (0000ms, 0890ms total)
T2108 002:678 JLINK_ClrBPEx(BPHandle = 0x00000006)  returns 0x00 (0000ms, 0891ms total)
T2108 002:678 JLINK_ReadReg(R0)  returns 0x00000001 (0000ms, 0891ms total)
T2108 002:678 JLINK_WriteReg(R0, 0x08008000)  returns 0x00 (0000ms, 0891ms total)
T2108 002:678 JLINK_WriteReg(R1, 0x00004000)  returns 0x00 (0000ms, 0891ms total)
T2108 002:678 JLINK_WriteReg(R2, 0x000000FF)  returns 0x00 (0000ms, 0891ms total)
T2108 002:678 JLINK_WriteReg(R3, 0x00000000)  returns 0x00 (0000ms, 0891ms total)
T2108 002:678 JLINK_WriteReg(R4, 0x00000000)  returns 0x00 (0000ms, 0891ms total)
T2108 002:678 JLINK_WriteReg(R5, 0x00000000)  returns 0x00 (0000ms, 0891ms total)
T2108 002:678 JLINK_WriteReg(R6, 0x00000000)  returns 0x00 (0000ms, 0891ms total)
T2108 002:678 JLINK_WriteReg(R7, 0x00000000)  returns 0x00 (0001ms, 0892ms total)
T2108 002:679 JLINK_WriteReg(R8, 0x00000000)  returns 0x00 (0000ms, 0892ms total)
T2108 002:679 JLINK_WriteReg(R9, 0x2000017C)  returns 0x00 (0000ms, 0892ms total)
T2108 002:679 JLINK_WriteReg(R10, 0x00000000)  returns 0x00 (0000ms, 0892ms total)
T2108 002:679 JLINK_WriteReg(R11, 0x00000000)  returns 0x00 (0000ms, 0892ms total)
T2108 002:679 JLINK_WriteReg(R12, 0x00000000)  returns 0x00 (0000ms, 0892ms total)
T2108 002:679 JLINK_WriteReg(R13 (SP), 0x20001000)  returns 0x00 (0001ms, 0893ms total)
T2108 002:680 JLINK_WriteReg(R14, 0x20000001)  returns 0x00 (0000ms, 0893ms total)
T2108 002:680 JLINK_WriteReg(R15 (PC), 0x200000BC)  returns 0x00 (0001ms, 0894ms total)
T2108 002:681 JLINK_WriteReg(XPSR, 0x01000000)  returns 0x00 (0000ms, 0894ms total)
T2108 002:681 JLINK_WriteReg(MSP, 0x20001000)  returns 0x00 (0000ms, 0894ms total)
T2108 002:681 JLINK_WriteReg(PSP, 0x20001000)  returns 0x00 (0000ms, 0894ms total)
T2108 002:681 JLINK_WriteReg(CFBP, 0x00000000)  returns 0x00 (0000ms, 0894ms total)
T2108 002:681 JLINK_SetBPEx(Addr = 0x20000000, Type = 0xFFFFFFF2)  returns 0x00000007 (0001ms, 0895ms total)
T2108 002:682 JLINK_Go() (0003ms, 0898ms total)
T2108 002:685 JLINK_IsHalted()  returns FALSE (0001ms, 0899ms total)
T2108 002:988 JLINK_IsHalted()  returns FALSE (0001ms, 0899ms total)
T2108 002:991 JLINK_IsHalted()  returns FALSE (0000ms, 0898ms total)
T2108 002:993 JLINK_IsHalted()  returns FALSE (0000ms, 0898ms total)
T2108 002:999 JLINK_IsHalted()  returns FALSE (0002ms, 0900ms total)
T2108 003:818 JLINK_IsHalted() -- CPU_ReadMem(2 bytes @ 0x20000000)  returns TRUE (0009ms, 0907ms total)
T2108 003:827 JLINK_ReadReg(R15 (PC))  returns 0x20000000 (0000ms, 0898ms total)
T2108 003:828 JLINK_ClrBPEx(BPHandle = 0x00000007)  returns 0x00 (0000ms, 0899ms total)
T2108 003:828 JLINK_ReadReg(R0)  returns 0x00000000 (0000ms, 0899ms total)
T2108 003:862 JLINK_WriteReg(R0, 0x00000001)  returns 0x00 (0000ms, 0899ms total)
T2108 003:862 JLINK_WriteReg(R1, 0x00004000)  returns 0x00 (0000ms, 0899ms total)
T2108 003:862 JLINK_WriteReg(R2, 0x000000FF)  returns 0x00 (0000ms, 0899ms total)
T2108 003:862 JLINK_WriteReg(R3, 0x00000000)  returns 0x00 (0000ms, 0899ms total)
T2108 003:862 JLINK_WriteReg(R4, 0x00000000)  returns 0x00 (0003ms, 0902ms total)
T2108 003:865 JLINK_WriteReg(R5, 0x00000000)  returns 0x00 (0001ms, 0903ms total)
T2108 003:866 JLINK_WriteReg(R6, 0x00000000)  returns 0x00 (0002ms, 0905ms total)
T2108 003:869 JLINK_WriteReg(R7, 0x00000000)  returns 0x00 (0001ms, 0906ms total)
T2108 003:871 JLINK_WriteReg(R8, 0x00000000)  returns 0x00 (0005ms, 0911ms total)
T2108 003:877 JLINK_WriteReg(R9, 0x2000017C)  returns 0x00 (0002ms, 0914ms total)
T2108 003:883 JLINK_WriteReg(R10, 0x00000000)  returns 0x00 (0003ms, 0920ms total)
T2108 003:910 JLINK_WriteReg(R11, 0x00000000)  returns 0x00 (0001ms, 0921ms total)
T2108 003:912 JLINK_WriteReg(R12, 0x00000000)  returns 0x00 (0003ms, 0925ms total)
T2108 003:916 JLINK_WriteReg(R13 (SP), 0x20001000)  returns 0x00 (0000ms, 0926ms total)
T2108 003:916 JLINK_WriteReg(R14, 0x20000001)  returns 0x00 (0001ms, 0927ms total)
T2108 003:917 JLINK_WriteReg(R15 (PC), 0x20000082)  returns 0x00 (0000ms, 0927ms total)
T2108 003:925 JLINK_WriteReg(XPSR, 0x01000000)  returns 0x00 (0000ms, 0927ms total)
T2108 003:925 JLINK_WriteReg(MSP, 0x20001000)  returns 0x00 (0001ms, 0928ms total)
T2108 003:926 JLINK_WriteReg(PSP, 0x20001000)  returns 0x00 (0000ms, 0928ms total)
T2108 003:926 JLINK_WriteReg(CFBP, 0x00000000)  returns 0x00 (0000ms, 0928ms total)
T2108 003:926 JLINK_SetBPEx(Addr = 0x20000000, Type = 0xFFFFFFF2)  returns 0x00000008 (0000ms, 0928ms total)
T2108 003:926 JLINK_Go() (0004ms, 0932ms total)
T2108 003:930 JLINK_IsHalted() -- CPU_ReadMem(2 bytes @ 0x20000000)  returns TRUE (0012ms, 0944ms total)
T2108 003:942 JLINK_ReadReg(R15 (PC))  returns 0x20000000 (0000ms, 0932ms total)
T2108 003:942 JLINK_ClrBPEx(BPHandle = 0x00000008)  returns 0x00 (0000ms, 0932ms total)
T2108 003:942 JLINK_ReadReg(R0)  returns 0x00000000 (0000ms, 0932ms total)
T2108 004:493 JLINK_WriteMem(0x20000000, 0x0180 Bytes, ...) -- Data:  00 BE 0A E0 0D 78 2D 06 68 40 08 24 40 00 00 D3 ... -- CPU_WriteMem(384 bytes @ 0x20000000)  returns 0x180 (0006ms, 0938ms total)
T2108 004:499 JLINK_WriteReg(R0, 0x08000000)  returns 0x00 (0000ms, 0938ms total)
T2108 004:499 JLINK_WriteReg(R1, 0x007A1200)  returns 0x00 (0000ms, 0938ms total)
T2108 004:499 JLINK_WriteReg(R2, 0x00000002)  returns 0x00 (0000ms, 0938ms total)
T2108 004:499 JLINK_WriteReg(R3, 0x00000000)  returns 0x00 (0000ms, 0938ms total)
T2108 004:499 JLINK_WriteReg(R4, 0x00000000)  returns 0x00 (0000ms, 0938ms total)
T2108 004:500 JLINK_WriteReg(R5, 0x00000000)  returns 0x00 (0000ms, 0939ms total)
T2108 004:500 JLINK_WriteReg(R6, 0x00000000)  returns 0x00 (0000ms, 0939ms total)
T2108 004:500 JLINK_WriteReg(R7, 0x00000000)  returns 0x00 (0000ms, 0939ms total)
T2108 004:500 JLINK_WriteReg(R8, 0x00000000)  returns 0x00 (0000ms, 0939ms total)
T2108 004:500 JLINK_WriteReg(R9, 0x2000017C)  returns 0x00 (0000ms, 0939ms total)
T2108 004:500 JLINK_WriteReg(R10, 0x00000000)  returns 0x00 (0000ms, 0939ms total)
T2108 004:500 JLINK_WriteReg(R11, 0x00000000)  returns 0x00 (0000ms, 0939ms total)
T2108 004:500 JLINK_WriteReg(R12, 0x00000000)  returns 0x00 (0000ms, 0939ms total)
T2108 004:500 JLINK_WriteReg(R13 (SP), 0x20001000)  returns 0x00 (0000ms, 0939ms total)
T2108 004:500 JLINK_WriteReg(R14, 0x20000001)  returns 0x00 (0000ms, 0939ms total)
T2108 004:500 JLINK_WriteReg(R15 (PC), 0x20000054)  returns 0x00 (0000ms, 0939ms total)
T2108 004:500 JLINK_WriteReg(XPSR, 0x01000000)  returns 0x00 (0000ms, 0939ms total)
T2108 004:501 JLINK_WriteReg(MSP, 0x20001000)  returns 0x00 (0000ms, 0940ms total)
T2108 004:501 JLINK_WriteReg(PSP, 0x20001000)  returns 0x00 (0000ms, 0940ms total)
T2108 004:501 JLINK_WriteReg(CFBP, 0x00000000)  returns 0x00 (0000ms, 0940ms total)
T2108 004:501 JLINK_SetBPEx(Addr = 0x20000000, Type = 0xFFFFFFF2) -- CPU_ReadMem(2 bytes @ 0x20000000)  returns 0x00000009 (0001ms, 0941ms total)
T2108 004:502 JLINK_Go() -- CPU_WriteMem(2 bytes @ 0x20000000) (0006ms, 0947ms total)
T2108 004:509 JLINK_IsHalted() -- CPU_ReadMem(2 bytes @ 0x20000000)  returns TRUE (0008ms, 0955ms total)
T2108 004:517 JLINK_ReadReg(R15 (PC))  returns 0x20000000 (0000ms, 0947ms total)
T2108 004:517 JLINK_ClrBPEx(BPHandle = 0x00000009)  returns 0x00 (0000ms, 0947ms total)
T2108 004:517 JLINK_ReadReg(R0)  returns 0x00000000 (0000ms, 0947ms total)
T2108 004:519 JLINK_WriteMem(0x20000180, 0x0400 Bytes, ...) -- Data:  70 17 00 20 5D 5A 00 08 ED 04 00 08 EF 04 00 08 ... -- CPU_WriteMem(1024 bytes @ 0x20000180)  returns 0x400 (0017ms, 0964ms total)
T2108 004:536 JLINK_WriteReg(R0, 0x08000000)  returns 0x00 (0000ms, 0964ms total)
T2108 004:536 JLINK_WriteReg(R1, 0x00000400)  returns 0x00 (0000ms, 0964ms total)
T2108 004:537 JLINK_WriteReg(R2, 0x20000180)  returns 0x00 (0000ms, 0964ms total)
T2108 004:537 JLINK_WriteReg(R3, 0x00000000)  returns 0x00 (0000ms, 0964ms total)
T2108 004:537 JLINK_WriteReg(R4, 0x00000000)  returns 0x00 (0000ms, 0964ms total)
T2108 004:537 JLINK_WriteReg(R5, 0x00000000)  returns 0x00 (0000ms, 0964ms total)
T2108 004:537 JLINK_WriteReg(R6, 0x00000000)  returns 0x00 (0000ms, 0964ms total)
T2108 004:537 JLINK_WriteReg(R7, 0x00000000)  returns 0x00 (0000ms, 0964ms total)
T2108 004:537 JLINK_WriteReg(R8, 0x00000000)  returns 0x00 (0000ms, 0964ms total)
T2108 004:537 JLINK_WriteReg(R9, 0x2000017C)  returns 0x00 (0000ms, 0964ms total)
T2108 004:537 JLINK_WriteReg(R10, 0x00000000)  returns 0x00 (0000ms, 0964ms total)
T2108 004:537 JLINK_WriteReg(R11, 0x00000000)  returns 0x00 (0000ms, 0964ms total)
T2108 004:537 JLINK_WriteReg(R12, 0x00000000)  returns 0x00 (0000ms, 0964ms total)
T2108 004:538 JLINK_WriteReg(R13 (SP), 0x20001000)  returns 0x00 (0000ms, 0964ms total)
T2108 004:538 JLINK_WriteReg(R14, 0x20000001)  returns 0x00 (0000ms, 0964ms total)
T2108 004:538 JLINK_WriteReg(R15 (PC), 0x20000108)  returns 0x00 (0000ms, 0964ms total)
T2108 004:538 JLINK_WriteReg(XPSR, 0x01000000)  returns 0x00 (0000ms, 0964ms total)
T2108 004:538 JLINK_WriteReg(MSP, 0x20001000)  returns 0x00 (0000ms, 0964ms total)
T2108 004:538 JLINK_WriteReg(PSP, 0x20001000)  returns 0x00 (0000ms, 0964ms total)
T2108 004:538 JLINK_WriteReg(CFBP, 0x00000000)  returns 0x00 (0000ms, 0964ms total)
T2108 004:538 JLINK_SetBPEx(Addr = 0x20000000, Type = 0xFFFFFFF2)  returns 0x0000000A (0000ms, 0964ms total)
T2108 004:538 JLINK_Go() (0004ms, 0968ms total)
T2108 004:542 JLINK_IsHalted()  returns FALSE (0002ms, 0970ms total)
T2108 005:071 JLINK_IsHalted() -- CPU_ReadMem(2 bytes @ 0x20000000)  returns TRUE (0009ms, 0977ms total)
T2108 005:080 JLINK_ReadReg(R15 (PC))  returns 0x20000000 (0000ms, 0968ms total)
T2108 005:080 JLINK_ClrBPEx(BPHandle = 0x0000000A)  returns 0x00 (0000ms, 0968ms total)
T2108 005:080 JLINK_ReadReg(R0)  returns 0x00000000 (0000ms, 0968ms total)
T2108 005:084 JLINK_WriteMem(0x20000180, 0x0400 Bytes, ...) -- Data:  33 32 46 34 00 00 00 00 53 50 49 20 54 45 53 54 ... -- CPU_WriteMem(1024 bytes @ 0x20000180)  returns 0x400 (0013ms, 0981ms total)
T2108 005:097 JLINK_WriteReg(R0, 0x08000400)  returns 0x00 (0000ms, 0981ms total)
T2108 005:097 JLINK_WriteReg(R1, 0x00000400)  returns 0x00 (0001ms, 0982ms total)
T2108 005:098 JLINK_WriteReg(R2, 0x20000180)  returns 0x00 (0000ms, 0982ms total)
T2108 005:098 JLINK_WriteReg(R3, 0x00000000)  returns 0x00 (0000ms, 0982ms total)
T2108 005:098 JLINK_WriteReg(R4, 0x00000000)  returns 0x00 (0000ms, 0982ms total)
T2108 005:098 JLINK_WriteReg(R5, 0x00000000)  returns 0x00 (0000ms, 0982ms total)
T2108 005:099 JLINK_WriteReg(R6, 0x00000000)  returns 0x00 (0000ms, 0983ms total)
T2108 005:099 JLINK_WriteReg(R7, 0x00000000)  returns 0x00 (0000ms, 0983ms total)
T2108 005:099 JLINK_WriteReg(R8, 0x00000000)  returns 0x00 (0000ms, 0983ms total)
T2108 005:099 JLINK_WriteReg(R9, 0x2000017C)  returns 0x00 (0000ms, 0983ms total)
T2108 005:099 JLINK_WriteReg(R10, 0x00000000)  returns 0x00 (0000ms, 0983ms total)
T2108 005:099 JLINK_WriteReg(R11, 0x00000000)  returns 0x00 (0000ms, 0983ms total)
T2108 005:099 JLINK_WriteReg(R12, 0x00000000)  returns 0x00 (0001ms, 0984ms total)
T2108 005:100 JLINK_WriteReg(R13 (SP), 0x20001000)  returns 0x00 (0000ms, 0984ms total)
T2108 005:100 JLINK_WriteReg(R14, 0x20000001)  returns 0x00 (0000ms, 0984ms total)
T2108 005:100 JLINK_WriteReg(R15 (PC), 0x20000108)  returns 0x00 (0000ms, 0984ms total)
T2108 005:100 JLINK_WriteReg(XPSR, 0x01000000)  returns 0x00 (0000ms, 0984ms total)
T2108 005:100 JLINK_WriteReg(MSP, 0x20001000)  returns 0x00 (0000ms, 0984ms total)
T2108 005:100 JLINK_WriteReg(PSP, 0x20001000)  returns 0x00 (0000ms, 0984ms total)
T2108 005:100 JLINK_WriteReg(CFBP, 0x00000000)  returns 0x00 (0000ms, 0984ms total)
T2108 005:100 JLINK_SetBPEx(Addr = 0x20000000, Type = 0xFFFFFFF2)  returns 0x0000000B (0000ms, 0984ms total)
T2108 005:100 JLINK_Go() (0003ms, 0987ms total)
T2108 005:103 JLINK_IsHalted()  returns FALSE (0002ms, 0989ms total)
T2108 005:278 JLINK_IsHalted() -- CPU_ReadMem(2 bytes @ 0x20000000)  returns TRUE (0007ms, 0994ms total)
T2108 005:285 JLINK_ReadReg(R15 (PC))  returns 0x20000000 (0000ms, 0987ms total)
T2108 005:285 JLINK_ClrBPEx(BPHandle = 0x0000000B)  returns 0x00 (0000ms, 0987ms total)
T2108 005:285 JLINK_ReadReg(R0)  returns 0x00000000 (0001ms, 0988ms total)
T2108 005:288 JLINK_WriteMem(0x20000180, 0x0400 Bytes, ...) -- Data:  07 B0 00 BD 10 B5 04 46 07 48 00 88 4F F6 C7 71 ... -- CPU_WriteMem(1024 bytes @ 0x20000180)  returns 0x400 (0013ms, 1001ms total)
T2108 005:301 JLINK_WriteReg(R0, 0x08000800)  returns 0x00 (0000ms, 1001ms total)
T2108 005:301 JLINK_WriteReg(R1, 0x00000400)  returns 0x00 (0000ms, 1001ms total)
T2108 005:301 JLINK_WriteReg(R2, 0x20000180)  returns 0x00 (0000ms, 1001ms total)
T2108 005:301 JLINK_WriteReg(R3, 0x00000000)  returns 0x00 (0000ms, 1001ms total)
T2108 005:301 JLINK_WriteReg(R4, 0x00000000)  returns 0x00 (0000ms, 1001ms total)
T2108 005:301 JLINK_WriteReg(R5, 0x00000000)  returns 0x00 (0000ms, 1001ms total)
T2108 005:301 JLINK_WriteReg(R6, 0x00000000)  returns 0x00 (0000ms, 1001ms total)
T2108 005:301 JLINK_WriteReg(R7, 0x00000000)  returns 0x00 (0000ms, 1001ms total)
T2108 005:301 JLINK_WriteReg(R8, 0x00000000)  returns 0x00 (0000ms, 1001ms total)
T2108 005:301 JLINK_WriteReg(R9, 0x2000017C)  returns 0x00 (0000ms, 1001ms total)
T2108 005:301 JLINK_WriteReg(R10, 0x00000000)  returns 0x00 (0000ms, 1001ms total)
T2108 005:301 JLINK_WriteReg(R11, 0x00000000)  returns 0x00 (0000ms, 1001ms total)
T2108 005:301 JLINK_WriteReg(R12, 0x00000000)  returns 0x00 (0001ms, 1002ms total)
T2108 005:302 JLINK_WriteReg(R13 (SP), 0x20001000)  returns 0x00 (0000ms, 1002ms total)
T2108 005:302 JLINK_WriteReg(R14, 0x20000001)  returns 0x00 (0000ms, 1002ms total)
T2108 005:302 JLINK_WriteReg(R15 (PC), 0x20000108)  returns 0x00 (0000ms, 1002ms total)
T2108 005:302 JLINK_WriteReg(XPSR, 0x01000000)  returns 0x00 (0000ms, 1002ms total)
T2108 005:302 JLINK_WriteReg(MSP, 0x20001000)  returns 0x00 (0000ms, 1002ms total)
T2108 005:302 JLINK_WriteReg(PSP, 0x20001000)  returns 0x00 (0000ms, 1002ms total)
T2108 005:302 JLINK_WriteReg(CFBP, 0x00000000)  returns 0x00 (0000ms, 1002ms total)
T2108 005:302 JLINK_SetBPEx(Addr = 0x20000000, Type = 0xFFFFFFF2)  returns 0x0000000C (0000ms, 1002ms total)
T2108 005:302 JLINK_Go() (0003ms, 1005ms total)
T2108 005:305 JLINK_IsHalted()  returns FALSE (0001ms, 1006ms total)
T2108 005:380 JLINK_IsHalted() -- CPU_ReadMem(2 bytes @ 0x20000000)  returns TRUE (0007ms, 1012ms total)
T2108 005:387 JLINK_ReadReg(R15 (PC))  returns 0x20000000 (0000ms, 1005ms total)
T2108 005:387 JLINK_ClrBPEx(BPHandle = 0x0000000C)  returns 0x00 (0000ms, 1005ms total)
T2108 005:387 JLINK_ReadReg(R0)  returns 0x00000000 (0000ms, 1005ms total)
T2108 005:389 JLINK_WriteMem(0x20000180, 0x0400 Bytes, ...) -- Data:  30 B5 01 46 01 F0 1F 04 C1 F3 45 13 CA 0A E5 02 ... -- CPU_WriteMem(1024 bytes @ 0x20000180)  returns 0x400 (0014ms, 1019ms total)
T2108 005:403 JLINK_WriteReg(R0, 0x08000C00)  returns 0x00 (0001ms, 1020ms total)
T2108 005:404 JLINK_WriteReg(R1, 0x00000400)  returns 0x00 (0000ms, 1020ms total)
T2108 005:404 JLINK_WriteReg(R2, 0x20000180)  returns 0x00 (0000ms, 1020ms total)
T2108 005:404 JLINK_WriteReg(R3, 0x00000000)  returns 0x00 (0000ms, 1020ms total)
T2108 005:404 JLINK_WriteReg(R4, 0x00000000)  returns 0x00 (0000ms, 1020ms total)
T2108 005:404 JLINK_WriteReg(R5, 0x00000000)  returns 0x00 (0000ms, 1020ms total)
T2108 005:404 JLINK_WriteReg(R6, 0x00000000)  returns 0x00 (0001ms, 1021ms total)
T2108 005:405 JLINK_WriteReg(R7, 0x00000000)  returns 0x00 (0000ms, 1021ms total)
T2108 005:405 JLINK_WriteReg(R8, 0x00000000)  returns 0x00 (0000ms, 1021ms total)
T2108 005:405 JLINK_WriteReg(R9, 0x2000017C)  returns 0x00 (0000ms, 1021ms total)
T2108 005:405 JLINK_WriteReg(R10, 0x00000000)  returns 0x00 (0000ms, 1021ms total)
T2108 005:405 JLINK_WriteReg(R11, 0x00000000)  returns 0x00 (0000ms, 1021ms total)
T2108 005:405 JLINK_WriteReg(R12, 0x00000000)  returns 0x00 (0000ms, 1021ms total)
T2108 005:405 JLINK_WriteReg(R13 (SP), 0x20001000)  returns 0x00 (0000ms, 1021ms total)
T2108 005:405 JLINK_WriteReg(R14, 0x20000001)  returns 0x00 (0000ms, 1021ms total)
T2108 005:405 JLINK_WriteReg(R15 (PC), 0x20000108)  returns 0x00 (0000ms, 1021ms total)
T2108 005:405 JLINK_WriteReg(XPSR, 0x01000000)  returns 0x00 (0001ms, 1022ms total)
T2108 005:406 JLINK_WriteReg(MSP, 0x20001000)  returns 0x00 (0000ms, 1022ms total)
T2108 005:406 JLINK_WriteReg(PSP, 0x20001000)  returns 0x00 (0000ms, 1022ms total)
T2108 005:406 JLINK_WriteReg(CFBP, 0x00000000)  returns 0x00 (0000ms, 1022ms total)
T2108 005:406 JLINK_SetBPEx(Addr = 0x20000000, Type = 0xFFFFFFF2)  returns 0x0000000D (0000ms, 1022ms total)
T2108 005:406 JLINK_Go() (0003ms, 1025ms total)
T2108 005:409 JLINK_IsHalted()  returns FALSE (0001ms, 1026ms total)
T2108 005:817 JLINK_IsHalted() -- CPU_ReadMem(2 bytes @ 0x20000000)  returns TRUE (0007ms, 1032ms total)
T2108 005:824 JLINK_ReadReg(R15 (PC))  returns 0x20000000 (0000ms, 1025ms total)
T2108 005:824 JLINK_ClrBPEx(BPHandle = 0x0000000D)  returns 0x00 (0000ms, 1025ms total)
T2108 005:824 JLINK_ReadReg(R0)  returns 0x00000000 (0000ms, 1025ms total)
T2108 005:828 JLINK_WriteMem(0x20000180, 0x0400 Bytes, ...) -- Data:  0B D1 E3 48 80 88 46 F6 04 01 88 42 05 D0 E0 48 ... -- CPU_WriteMem(1024 bytes @ 0x20000180)  returns 0x400 (0013ms, 1038ms total)
T2108 005:841 JLINK_WriteReg(R0, 0x08001000)  returns 0x00 (0000ms, 1038ms total)
T2108 005:841 JLINK_WriteReg(R1, 0x00000400)  returns 0x00 (0000ms, 1038ms total)
T2108 005:841 JLINK_WriteReg(R2, 0x20000180)  returns 0x00 (0000ms, 1038ms total)
T2108 005:841 JLINK_WriteReg(R3, 0x00000000)  returns 0x00 (0000ms, 1038ms total)
T2108 005:841 JLINK_WriteReg(R4, 0x00000000)  returns 0x00 (0000ms, 1038ms total)
T2108 005:841 JLINK_WriteReg(R5, 0x00000000)  returns 0x00 (0000ms, 1038ms total)
T2108 005:841 JLINK_WriteReg(R6, 0x00000000)  returns 0x00 (0000ms, 1038ms total)
T2108 005:841 JLINK_WriteReg(R7, 0x00000000)  returns 0x00 (0000ms, 1038ms total)
T2108 005:841 JLINK_WriteReg(R8, 0x00000000)  returns 0x00 (0000ms, 1038ms total)
T2108 005:841 JLINK_WriteReg(R9, 0x2000017C)  returns 0x00 (0000ms, 1038ms total)
T2108 005:841 JLINK_WriteReg(R10, 0x00000000)  returns 0x00 (0000ms, 1038ms total)
T2108 005:841 JLINK_WriteReg(R11, 0x00000000)  returns 0x00 (0000ms, 1038ms total)
T2108 005:841 JLINK_WriteReg(R12, 0x00000000)  returns 0x00 (0000ms, 1038ms total)
T2108 005:841 JLINK_WriteReg(R13 (SP), 0x20001000)  returns 0x00 (0000ms, 1038ms total)
T2108 005:841 JLINK_WriteReg(R14, 0x20000001)  returns 0x00 (0001ms, 1039ms total)
T2108 005:842 JLINK_WriteReg(R15 (PC), 0x20000108)  returns 0x00 (0000ms, 1039ms total)
T2108 005:842 JLINK_WriteReg(XPSR, 0x01000000)  returns 0x00 (0000ms, 1039ms total)
T2108 005:842 JLINK_WriteReg(MSP, 0x20001000)  returns 0x00 (0000ms, 1039ms total)
T2108 005:842 JLINK_WriteReg(PSP, 0x20001000)  returns 0x00 (0000ms, 1039ms total)
T2108 005:842 JLINK_WriteReg(CFBP, 0x00000000)  returns 0x00 (0000ms, 1039ms total)
T2108 005:842 JLINK_SetBPEx(Addr = 0x20000000, Type = 0xFFFFFFF2)  returns 0x0000000E (0000ms, 1039ms total)
T2108 005:842 JLINK_Go() (0003ms, 1042ms total)
T2108 005:845 JLINK_IsHalted()  returns FALSE (0001ms, 1043ms total)
T2108 006:043 JLINK_IsHalted() -- CPU_ReadMem(2 bytes @ 0x20000000)  returns TRUE (0007ms, 1049ms total)
T2108 006:050 JLINK_ReadReg(R15 (PC))  returns 0x20000000 (0000ms, 1042ms total)
T2108 006:050 JLINK_ClrBPEx(BPHandle = 0x0000000E)  returns 0x00 (0000ms, 1042ms total)
T2108 006:050 JLINK_ReadReg(R0)  returns 0x00000000 (0000ms, 1042ms total)
T2108 006:051 JLINK_WriteMem(0x20000180, 0x0400 Bytes, ...) -- Data:  04 01 88 42 1D D1 E4 48 80 79 01 28 04 D1 E2 48 ... -- CPU_WriteMem(1024 bytes @ 0x20000180)  returns 0x400 (0013ms, 1055ms total)
T2108 006:064 JLINK_WriteReg(R0, 0x08001400)  returns 0x00 (0000ms, 1055ms total)
T2108 006:064 JLINK_WriteReg(R1, 0x00000400)  returns 0x00 (0000ms, 1055ms total)
T2108 006:064 JLINK_WriteReg(R2, 0x20000180)  returns 0x00 (0000ms, 1055ms total)
T2108 006:064 JLINK_WriteReg(R3, 0x00000000)  returns 0x00 (0000ms, 1055ms total)
T2108 006:064 JLINK_WriteReg(R4, 0x00000000)  returns 0x00 (0001ms, 1056ms total)
T2108 006:065 JLINK_WriteReg(R5, 0x00000000)  returns 0x00 (0000ms, 1056ms total)
T2108 006:065 JLINK_WriteReg(R6, 0x00000000)  returns 0x00 (0000ms, 1056ms total)
T2108 006:065 JLINK_WriteReg(R7, 0x00000000)  returns 0x00 (0000ms, 1056ms total)
T2108 006:065 JLINK_WriteReg(R8, 0x00000000)  returns 0x00 (0000ms, 1056ms total)
T2108 006:065 JLINK_WriteReg(R9, 0x2000017C)  returns 0x00 (0000ms, 1056ms total)
T2108 006:065 JLINK_WriteReg(R10, 0x00000000)  returns 0x00 (0000ms, 1056ms total)
T2108 006:065 JLINK_WriteReg(R11, 0x00000000)  returns 0x00 (0000ms, 1056ms total)
T2108 006:065 JLINK_WriteReg(R12, 0x00000000)  returns 0x00 (0000ms, 1056ms total)
T2108 006:065 JLINK_WriteReg(R13 (SP), 0x20001000)  returns 0x00 (0000ms, 1056ms total)
T2108 006:065 JLINK_WriteReg(R14, 0x20000001)  returns 0x00 (0000ms, 1056ms total)
T2108 006:065 JLINK_WriteReg(R15 (PC), 0x20000108)  returns 0x00 (0000ms, 1056ms total)
T2108 006:065 JLINK_WriteReg(XPSR, 0x01000000)  returns 0x00 (0000ms, 1056ms total)
T2108 006:065 JLINK_WriteReg(MSP, 0x20001000)  returns 0x00 (0000ms, 1056ms total)
T2108 006:065 JLINK_WriteReg(PSP, 0x20001000)  returns 0x00 (0000ms, 1056ms total)
T2108 006:065 JLINK_WriteReg(CFBP, 0x00000000)  returns 0x00 (0000ms, 1056ms total)
T2108 006:065 JLINK_SetBPEx(Addr = 0x20000000, Type = 0xFFFFFFF2)  returns 0x0000000F (0000ms, 1056ms total)
T2108 006:065 JLINK_Go() (0003ms, 1059ms total)
T2108 006:069 JLINK_IsHalted()  returns FALSE (0000ms, 1059ms total)
T2108 006:119 JLINK_IsHalted() -- CPU_ReadMem(2 bytes @ 0x20000000)  returns TRUE (0007ms, 1066ms total)
T2108 006:126 JLINK_ReadReg(R15 (PC))  returns 0x20000000 (0000ms, 1059ms total)
T2108 006:126 JLINK_ClrBPEx(BPHandle = 0x0000000F)  returns 0x00 (0000ms, 1059ms total)
T2108 006:126 JLINK_ReadReg(R0)  returns 0x00000000 (0000ms, 1059ms total)
T2108 006:127 JLINK_WriteMem(0x20000180, 0x0400 Bytes, ...) -- Data:  28 12 FF F7 D2 F9 E7 49 89 89 49 1C 88 B2 FF F7 ... -- CPU_WriteMem(1024 bytes @ 0x20000180)  returns 0x400 (0013ms, 1072ms total)
T2108 006:140 JLINK_WriteReg(R0, 0x08001800)  returns 0x00 (0000ms, 1072ms total)
T2108 006:140 JLINK_WriteReg(R1, 0x00000400)  returns 0x00 (0000ms, 1072ms total)
T2108 006:140 JLINK_WriteReg(R2, 0x20000180)  returns 0x00 (0000ms, 1072ms total)
T2108 006:140 JLINK_WriteReg(R3, 0x00000000)  returns 0x00 (0000ms, 1072ms total)
T2108 006:140 JLINK_WriteReg(R4, 0x00000000)  returns 0x00 (0001ms, 1073ms total)
T2108 006:141 JLINK_WriteReg(R5, 0x00000000)  returns 0x00 (0000ms, 1073ms total)
T2108 006:141 JLINK_WriteReg(R6, 0x00000000)  returns 0x00 (0000ms, 1073ms total)
T2108 006:141 JLINK_WriteReg(R7, 0x00000000)  returns 0x00 (0000ms, 1073ms total)
T2108 006:141 JLINK_WriteReg(R8, 0x00000000)  returns 0x00 (0000ms, 1073ms total)
T2108 006:141 JLINK_WriteReg(R9, 0x2000017C)  returns 0x00 (0000ms, 1073ms total)
T2108 006:141 JLINK_WriteReg(R10, 0x00000000)  returns 0x00 (0000ms, 1073ms total)
T2108 006:141 JLINK_WriteReg(R11, 0x00000000)  returns 0x00 (0000ms, 1073ms total)
T2108 006:141 JLINK_WriteReg(R12, 0x00000000)  returns 0x00 (0000ms, 1073ms total)
T2108 006:141 JLINK_WriteReg(R13 (SP), 0x20001000)  returns 0x00 (0000ms, 1073ms total)
T2108 006:141 JLINK_WriteReg(R14, 0x20000001)  returns 0x00 (0000ms, 1073ms total)
T2108 006:141 JLINK_WriteReg(R15 (PC), 0x20000108)  returns 0x00 (0000ms, 1073ms total)
T2108 006:141 JLINK_WriteReg(XPSR, 0x01000000)  returns 0x00 (0000ms, 1073ms total)
T2108 006:141 JLINK_WriteReg(MSP, 0x20001000)  returns 0x00 (0000ms, 1073ms total)
T2108 006:141 JLINK_WriteReg(PSP, 0x20001000)  returns 0x00 (0000ms, 1073ms total)
T2108 006:141 JLINK_WriteReg(CFBP, 0x00000000)  returns 0x00 (0000ms, 1073ms total)
T2108 006:141 JLINK_SetBPEx(Addr = 0x20000000, Type = 0xFFFFFFF2)  returns 0x00000010 (0001ms, 1074ms total)
T2108 006:142 JLINK_Go() (0003ms, 1077ms total)
T2108 006:145 JLINK_IsHalted()  returns FALSE (0000ms, 1077ms total)
T2108 006:156 JLINK_IsHalted() -- CPU_ReadMem(2 bytes @ 0x20000000)  returns TRUE (0007ms, 1084ms total)
T2108 006:163 JLINK_ReadReg(R15 (PC))  returns 0x20000000 (0000ms, 1077ms total)
T2108 006:163 JLINK_ClrBPEx(BPHandle = 0x00000010)  returns 0x00 (0000ms, 1077ms total)
T2108 006:163 JLINK_ReadReg(R0)  returns 0x00000000 (0000ms, 1077ms total)
T2108 006:164 JLINK_WriteMem(0x20000180, 0x0400 Bytes, ...) -- Data:  80 88 46 F6 04 01 88 42 7A D0 D4 20 FE F7 C4 FF ... -- CPU_WriteMem(1024 bytes @ 0x20000180)  returns 0x400 (0013ms, 1090ms total)
T2108 006:177 JLINK_WriteReg(R0, 0x08001C00)  returns 0x00 (0000ms, 1090ms total)
T2108 006:177 JLINK_WriteReg(R1, 0x00000400)  returns 0x00 (0000ms, 1090ms total)
T2108 006:177 JLINK_WriteReg(R2, 0x20000180)  returns 0x00 (0000ms, 1090ms total)
T2108 006:177 JLINK_WriteReg(R3, 0x00000000)  returns 0x00 (0000ms, 1090ms total)
T2108 006:177 JLINK_WriteReg(R4, 0x00000000)  returns 0x00 (0000ms, 1090ms total)
T2108 006:177 JLINK_WriteReg(R5, 0x00000000)  returns 0x00 (0000ms, 1090ms total)
T2108 006:177 JLINK_WriteReg(R6, 0x00000000)  returns 0x00 (0000ms, 1090ms total)
T2108 006:177 JLINK_WriteReg(R7, 0x00000000)  returns 0x00 (0000ms, 1090ms total)
T2108 006:177 JLINK_WriteReg(R8, 0x00000000)  returns 0x00 (0000ms, 1090ms total)
T2108 006:177 JLINK_WriteReg(R9, 0x2000017C)  returns 0x00 (0000ms, 1090ms total)
T2108 006:177 JLINK_WriteReg(R10, 0x00000000)  returns 0x00 (0000ms, 1090ms total)
T2108 006:178 JLINK_WriteReg(R11, 0x00000000)  returns 0x00 (0000ms, 1091ms total)
T2108 006:178 JLINK_WriteReg(R12, 0x00000000)  returns 0x00 (0000ms, 1091ms total)
T2108 006:178 JLINK_WriteReg(R13 (SP), 0x20001000)  returns 0x00 (0000ms, 1091ms total)
T2108 006:178 JLINK_WriteReg(R14, 0x20000001)  returns 0x00 (0000ms, 1091ms total)
T2108 006:178 JLINK_WriteReg(R15 (PC), 0x20000108)  returns 0x00 (0000ms, 1091ms total)
T2108 006:178 JLINK_WriteReg(XPSR, 0x01000000)  returns 0x00 (0000ms, 1091ms total)
T2108 006:178 JLINK_WriteReg(MSP, 0x20001000)  returns 0x00 (0000ms, 1091ms total)
T2108 006:178 JLINK_WriteReg(PSP, 0x20001000)  returns 0x00 (0000ms, 1091ms total)
T2108 006:178 JLINK_WriteReg(CFBP, 0x00000000)  returns 0x00 (0000ms, 1091ms total)
T2108 006:178 JLINK_SetBPEx(Addr = 0x20000000, Type = 0xFFFFFFF2)  returns 0x00000011 (0000ms, 1091ms total)
T2108 006:178 JLINK_Go() (0003ms, 1094ms total)
T2108 006:181 JLINK_IsHalted()  returns FALSE (0001ms, 1095ms total)
T2108 006:222 JLINK_IsHalted() -- CPU_ReadMem(2 bytes @ 0x20000000)  returns TRUE (0007ms, 1101ms total)
T2108 006:229 JLINK_ReadReg(R15 (PC))  returns 0x20000000 (0000ms, 1094ms total)
T2108 006:229 JLINK_ClrBPEx(BPHandle = 0x00000011)  returns 0x00 (0000ms, 1094ms total)
T2108 006:229 JLINK_ReadReg(R0)  returns 0x00000000 (0000ms, 1094ms total)
T2108 006:230 JLINK_WriteMem(0x20000180, 0x0400 Bytes, ...) -- Data:  D4 FD EF 20 FE F7 D1 FD 11 20 FE F7 C5 FD 78 20 ... -- CPU_WriteMem(1024 bytes @ 0x20000180)  returns 0x400 (0013ms, 1107ms total)
T2108 006:243 JLINK_WriteReg(R0, 0x08002000)  returns 0x00 (0000ms, 1107ms total)
T2108 006:243 JLINK_WriteReg(R1, 0x00000400)  returns 0x00 (0000ms, 1107ms total)
T2108 006:243 JLINK_WriteReg(R2, 0x20000180)  returns 0x00 (0000ms, 1107ms total)
T2108 006:243 JLINK_WriteReg(R3, 0x00000000)  returns 0x00 (0000ms, 1107ms total)
T2108 006:243 JLINK_WriteReg(R4, 0x00000000)  returns 0x00 (0000ms, 1107ms total)
T2108 006:243 JLINK_WriteReg(R5, 0x00000000)  returns 0x00 (0000ms, 1107ms total)
T2108 006:243 JLINK_WriteReg(R6, 0x00000000)  returns 0x00 (0000ms, 1107ms total)
T2108 006:243 JLINK_WriteReg(R7, 0x00000000)  returns 0x00 (0000ms, 1107ms total)
T2108 006:243 JLINK_WriteReg(R8, 0x00000000)  returns 0x00 (0000ms, 1107ms total)
T2108 006:243 JLINK_WriteReg(R9, 0x2000017C)  returns 0x00 (0000ms, 1107ms total)
T2108 006:243 JLINK_WriteReg(R10, 0x00000000)  returns 0x00 (0001ms, 1108ms total)
T2108 006:244 JLINK_WriteReg(R11, 0x00000000)  returns 0x00 (0000ms, 1108ms total)
T2108 006:244 JLINK_WriteReg(R12, 0x00000000)  returns 0x00 (0000ms, 1108ms total)
T2108 006:244 JLINK_WriteReg(R13 (SP), 0x20001000)  returns 0x00 (0000ms, 1108ms total)
T2108 006:244 JLINK_WriteReg(R14, 0x20000001)  returns 0x00 (0000ms, 1108ms total)
T2108 006:244 JLINK_WriteReg(R15 (PC), 0x20000108)  returns 0x00 (0000ms, 1108ms total)
T2108 006:244 JLINK_WriteReg(XPSR, 0x01000000)  returns 0x00 (0000ms, 1108ms total)
T2108 006:244 JLINK_WriteReg(MSP, 0x20001000)  returns 0x00 (0000ms, 1108ms total)
T2108 006:244 JLINK_WriteReg(PSP, 0x20001000)  returns 0x00 (0000ms, 1108ms total)
